
T1834 000:046 SEGGER J-Link V6.14b Log File (0000ms, 0018ms total)
T1834 000:046 DLL Compiled: Mar  9 2017 08:46:04 (0000ms, 0018ms total)
T1834 000:046 Logging started @ 2023-08-01 17:34 (0000ms, 0018ms total)
T1834 000:046 JLINK_SetWarnOutHandler(...) (0000ms, 0018ms total)
T1834 000:046 JLINK_OpenEx(...)
Firmware: J-Link V11 compiled Apr 27 2041 16:36:21
Hardware: V11.00
S/N: 941000024
Feature(s): GDB, JFlash, FlashDL, RDI, FlashBPWEBSRV Webserver running on local port 19080 (0010ms, 0028ms total)
T1834 000:046   returns O.K. (0010ms, 0028ms total)
T1834 000:056 JLINK_SetErrorOutHandler(...) (0000ms, 0028ms total)
T1834 000:056 JLINK_ExecCommand("ProjectFile = "C:\Users\12568\Desktop\Superap\Superap\change\MDK-ARM\JLinkSettings.ini"", ...). C:\Program Files (x86)\SEGGER\JLink_V614b\JLinkDevices.xml evaluated successfully.Device "STM32F334C8" selected.  returns 0x00 (0062ms, 0090ms total)
T1834 000:121 JLINK_ExecCommand("Device = STM32F334C8Tx", ...). Device "STM32F334C8" selected.  returns 0x00 (0006ms, 0096ms total)
T1834 000:127 JLINK_ExecCommand("DisableConnectionTimeout", ...).   returns 0x01 (0000ms, 0096ms total)
T1834 000:127 JLINK_GetHardwareVersion()  returns 0x1ADB0 (0000ms, 0096ms total)
T1834 000:127 JLINK_GetDLLVersion()  returns 61402 (0000ms, 0096ms total)
T1834 000:127 JLINK_GetFirmwareString(...) (0000ms, 0096ms total)
T1834 000:136 JLINK_GetDLLVersion()  returns 61402 (0001ms, 0097ms total)
T1834 000:137 JLINK_GetCompileDateTime() (0000ms, 0097ms total)
T1834 000:140 JLINK_GetFirmwareString(...) (0000ms, 0097ms total)
T1834 000:146 JLINK_GetHardwareVersion()  returns 0x1ADB0 (0000ms, 0097ms total)
T1834 000:159 JLINK_TIF_Select(JLINKARM_TIF_SWD)  returns 0x00 (0001ms, 0098ms total)
T1834 000:160 JLINK_SetSpeed(5000) (0001ms, 0099ms total)
T1834 000:161 JLINK_GetId() >0x108 TIF>Found SWD-DP with ID 0x2BA01477 >0x0D TIF> >0x28 TIF> >0x0D TIF> >0x28 TIF> >0x0D TIF> >0x28 TIF> >0x0D TIF> >0x28 TIF> >0x0D TIF> >0x21 TIF> >0x0D TIF> >0x28 TIF> >0x0D TIF> >0x28 TIF> >0x0D TIF> >0x28 TIF> >0x0D TIF> >0x21 TIF> >0x0D TIF> >0x21 TIF> >0x0D TIF> >0x28 TIF> >0x0D TIF> >0x21 TIF> >0x0D TIF> >0x21 TIF> >0x0D TIF> >0x28 TIF> >0x0D TIF> >0x28 TIF> >0x0D TIF> >0x28 TIF> >0x0D TIF> >0x21 TIF> >0x0D TIF> >0x21 TIF> >0x0D TIF> >0x28 TIF> >0x0D TIF>
 >0x28 TIF> >0x0D TIF> >0x28 TIF> >0x0D TIF> >0x21 TIF> >0x0D TIF> >0x21 TIF> >0x0D TIF> >0x28 TIF> >0x0D TIF> >0x21 TIF> >0x0D TIF> >0x21 TIF> >0x0D TIF> >0x28 TIF> >0x0D TIF> >0x21 TIF> >0x0D TIF> >0x21 TIF> >0x0D TIF> >0x28 TIF> >0x0D TIF> >0x21 TIF> >0x0D TIF> >0x21 TIF> >0x0D TIF> >0x28 TIF> >0x0D TIF> >0x21 TIF> >0x0D TIF> >0x21 TIF> >0x108 TIF>Found SWD-DP with ID 0x2BA01477 >0x0D TIF> >0x28 TIF> >0x0D TIF> >0x28 TIF> >0x0D TIF> >0x28 TIF> >0x0D TIF> >0x28 TIF> >0x0D TIF> >0x21 TIF> >0x0D TIF>
 >0x28 TIF> >0x0D TIF> >0x28 TIF> >0x0D TIF> >0x21 TIF> >0x0D TIF> >0x21 TIF> >0x0D TIF> >0x21 TIF>AP-IDR: 0x24770011, Type: AHB-APAHB-AP ROM: 0xE00FF000 (Base addr. of first ROM table) >0x0D TIF> >0x28 TIF> >0x0D TIF> >0x28 TIF> >0x0D TIF> >0x28 TIF> >0x0D TIF> >0x21 TIF> >0x0D TIF> >0x21 TIF> >0x0D TIF> >0x28 TIF> >0x0D TIF> >0x21 TIF> >0x0D TIF> >0x21 TIF>Found Cortex-M4 r0p1, Little endian. -- CPU_ReadMem(4 bytes @ 0xE000EDF0) -- CPU_WriteMem(4 bytes @ 0xE000EDF0) -- CPU_ReadMem(4 bytes @ 0xE0002000)
FPUnit: 6 code (BP) slots and 2 literal slots -- CPU_ReadMem(4 bytes @ 0xE000EDFC) -- CPU_WriteMem(4 bytes @ 0xE000EDFC) -- CPU_ReadMem(4 bytes @ 0xE0001000) -- CPU_WriteMem(4 bytes @ 0xE0001000) -- CPU_ReadMem(4 bytes @ 0xE000ED88) -- CPU_WriteMem(4 bytes @ 0xE000ED88) -- CPU_ReadMem(4 bytes @ 0xE000ED88) -- CPU_WriteMem(4 bytes @ 0xE000ED88)CoreSight components:ROMTbl 0 @ E00FF000 -- CPU_ReadMem(16 bytes @ 0xE00FF000) -- CPU_ReadMem(16 bytes @ 0xE000EFF0) -- CPU_ReadMem(16 bytes @ 0xE000EFE0)
ROMTbl 0 [0]: FFF0F000, CID: B105E00D, PID: 000BB00C SCS -- CPU_ReadMem(16 bytes @ 0xE0001FF0) -- CPU_ReadMem(16 bytes @ 0xE0001FE0)ROMTbl 0 [1]: FFF02000, CID: B105E00D, PID: 003BB002 DWT -- CPU_ReadMem(16 bytes @ 0xE0002FF0) -- CPU_ReadMem(16 bytes @ 0xE0002FE0)ROMTbl 0 [2]: FFF03000, CID: B105E00D, PID: 002BB003 FPB -- CPU_ReadMem(16 bytes @ 0xE0000FF0) -- CPU_ReadMem(16 bytes @ 0xE0000FE0)ROMTbl 0 [3]: FFF01000, CID: B105E00D, PID: 003BB001 ITM -- CPU_ReadMem(16 bytes @ 0xE00FF010)
 -- CPU_ReadMem(16 bytes @ 0xE0040FF0) -- CPU_ReadMem(16 bytes @ 0xE0040FE0)ROMTbl 0 [4]: FFF41000, CID: B105900D, PID: 000BB9A1 TPIU -- CPU is running -- CPU_WriteMem(4 bytes @ 0xE000EDF0) -- CPU is running -- CPU_WriteMem(4 bytes @ 0xE000EDFC) >0x35 TIF> -- CPU is running -- CPU_WriteMem(4 bytes @ 0xE000ED0C) >0x0D TIF> >0x28 TIF> -- CPU is running -- CPU_ReadMem(4 bytes @ 0xE000EDF0) -- CPU is running -- CPU_ReadMem(4 bytes @ 0xE000EDF0) -- CPU is running -- CPU_WriteMem(4 bytes @ 0xE000EDF0)
 -- CPU is running -- CPU_WriteMem(4 bytes @ 0xE000EDFC) -- CPU is running -- CPU_ReadMem(4 bytes @ 0xE000EDF0) -- CPU_WriteMem(4 bytes @ 0xE0002000) -- CPU_ReadMem(4 bytes @ 0xE000EDFC) -- CPU_ReadMem(4 bytes @ 0xE0001000) -- CPU_WriteMem(12288 bytes @ 0x20000000) >0x0D TIF> >0x21 TIF>  returns 0x2BA01477 (0194ms, 0293ms total)
T1834 000:355 JLINK_GetDLLVersion()  returns 61402 (0000ms, 0293ms total)
T1834 000:355 JLINK_CORE_GetFound()  returns 0xE0000FF (0002ms, 0295ms total)
T1834 000:357 JLINK_GetDebugInfo(0x100 = JLINKARM_ROM_TABLE_ADDR_INDEX) -- Value=0xE00FF000  returns 0x00 (0000ms, 0295ms total)
T1834 000:361 JLINK_GetDebugInfo(0x100 = JLINKARM_ROM_TABLE_ADDR_INDEX) -- Value=0xE00FF000  returns 0x00 (0000ms, 0295ms total)
T1834 000:361 JLINK_GetDebugInfo(0x101 = JLINKARM_DEBUG_INFO_ETM_ADDR_INDEX) -- Value=0x00000000  returns 0x00 (0000ms, 0295ms total)
T1834 000:361 JLINK_ReadMem (0xE0041FF0, 0x0010 Bytes, ...) -- CPU_ReadMem(16 bytes @ 0xE0041FF0) - Data: 00 00 00 00 00 00 00 00 00 00 00 00 00 00 00 00  returns 0x00 (0001ms, 0296ms total)
T1834 000:362 JLINK_GetDebugInfo(0x102 = JLINKARM_DEBUG_INFO_MTB_ADDR_INDEX) -- Value=0x00000000  returns 0x00 (0000ms, 0296ms total)
T1834 000:362 JLINK_GetDebugInfo(0x103 = JLINKARM_DEBUG_INFO_TPIU_ADDR_INDEX) -- Value=0xE0040000  returns 0x00 (0000ms, 0296ms total)
T1834 000:362 JLINK_GetDebugInfo(0x104 = JLINKARM_DEBUG_INFO_ITM_ADDR_INDEX) -- Value=0xE0000000  returns 0x00 (0000ms, 0296ms total)
T1834 000:362 JLINK_GetDebugInfo(0x105 = JLINKARM_DEBUG_INFO_DWT_ADDR_INDEX) -- Value=0xE0001000  returns 0x00 (0000ms, 0296ms total)
T1834 000:362 JLINK_GetDebugInfo(0x106 = JLINKARM_DEBUG_INFO_FPB_ADDR_INDEX) -- Value=0xE0002000  returns 0x00 (0000ms, 0296ms total)
T1834 000:362 JLINK_GetDebugInfo(0x107 = JLINKARM_DEBUG_INFO_NVIC_ADDR_INDEX) -- Value=0xE000E000  returns 0x00 (0000ms, 0296ms total)
T1834 000:362 JLINK_GetDebugInfo(0x10C = JLINKARM_DEBUG_INFO_DBG_ADDR_INDEX) -- Value=0xE000EDF0  returns 0x00 (0000ms, 0296ms total)
T1834 000:362 JLINK_ReadMemU32(0xE000EF40, 0x0001 Items, ...) -- CPU_ReadMem(4 bytes @ 0xE000EF40) - Data: 21 00 11 10  returns 0x01 (0001ms, 0297ms total)
T1834 000:363 JLINK_ReadMemU32(0xE000EF44, 0x0001 Items, ...) -- CPU_ReadMem(4 bytes @ 0xE000EF44) - Data: 11 00 00 11  returns 0x01 (0000ms, 0297ms total)
T1834 000:363 JLINK_ReadMemU32(0xE000ED00, 0x0001 Items, ...) -- CPU_ReadMem(4 bytes @ 0xE000ED00) - Data: 41 C2 0F 41  returns 0x01 (0001ms, 0298ms total)
T1834 000:364 JLINK_SetResetType(JLINKARM_CM3_RESET_TYPE_NORMAL)  returns JLINKARM_CM3_RESET_TYPE_NORMAL (0000ms, 0298ms total)
T1834 000:364 JLINK_Reset() -- CPU_WriteMem(4 bytes @ 0xE000EDF0) -- CPU_WriteMem(4 bytes @ 0xE000EDFC) >0x35 TIF> -- CPU_WriteMem(4 bytes @ 0xE000ED0C) >0x0D TIF> >0x28 TIF> -- CPU_ReadMem(4 bytes @ 0xE000EDF0) -- CPU_ReadMem(4 bytes @ 0xE000EDF0) -- CPU_WriteMem(4 bytes @ 0xE000EDF0) -- CPU_WriteMem(4 bytes @ 0xE000EDFC) -- CPU is running -- CPU_ReadMem(4 bytes @ 0xE000EDF0) -- CPU_WriteMem(4 bytes @ 0xE0002000) -- CPU_ReadMem(4 bytes @ 0xE000EDFC) -- CPU_ReadMem(4 bytes @ 0xE0001000)
 (0065ms, 0363ms total)
T1834 000:429 JLINK_Halt()  returns 0x00 (0000ms, 0363ms total)
T1834 000:429 JLINK_IsHalted()  returns TRUE (0000ms, 0363ms total)
T1834 000:429 JLINK_ReadMemU32(0xE000EDF0, 0x0001 Items, ...) -- CPU_ReadMem(4 bytes @ 0xE000EDF0) - Data: 03 00 03 00  returns 0x01 (0001ms, 0364ms total)
T1834 000:430 JLINK_WriteU32(0xE000EDF0, 0xA05F0003) -- CPU_WriteMem(4 bytes @ 0xE000EDF0)  returns 0x00 (0000ms, 0364ms total)
T1834 000:430 JLINK_WriteU32(0xE000EDFC, 0x01000000) -- CPU_WriteMem(4 bytes @ 0xE000EDFC)  returns 0x00 (0000ms, 0364ms total)
T1834 000:446 JLINK_GetHWStatus(...)  returns 0x00 (0000ms, 0364ms total)
T1834 000:458 JLINK_GetNumBPUnits(Type = 0xFFFFFF00)  returns 0x06 (0000ms, 0364ms total)
T1834 000:458 JLINK_GetNumBPUnits(Type = 0xF0)  returns 0x2000 (0000ms, 0364ms total)
T1834 000:458 JLINK_GetNumWPUnits()  returns 0x04 (0000ms, 0364ms total)
T1834 000:467 JLINK_GetSpeed()  returns 0x1388 (0000ms, 0364ms total)
T1834 000:475 JLINK_ReadMemU32(0xE000E004, 0x0001 Items, ...) -- CPU_ReadMem(4 bytes @ 0xE000E004) - Data: 02 00 00 00  returns 0x01 (0000ms, 0364ms total)
T1834 000:475 JLINK_ReadMemU32(0xE000E004, 0x0001 Items, ...) -- CPU_ReadMem(4 bytes @ 0xE000E004) - Data: 02 00 00 00  returns 0x01 (0000ms, 0364ms total)
T1834 000:476 JLINK_WriteMem(0xE0001000, 0x001C Bytes, ...) - Data: 01 00 00 00 00 00 00 00 00 00 00 00 00 00 00 00 ... -- CPU_WriteMem(28 bytes @ 0xE0001000)  returns 0x1C (0000ms, 0365ms total)
T1834 000:476 JLINK_ReadMem (0xE0001000, 0x001C Bytes, ...) -- CPU_ReadMem(28 bytes @ 0xE0001000) - Data: 01 00 00 40 00 00 00 00 00 00 00 00 00 00 00 00 ...  returns 0x00 (0001ms, 0366ms total)
T1834 000:477 JLINK_Halt()  returns 0x00 (0000ms, 0366ms total)
T1834 000:477 JLINK_IsHalted()  returns TRUE (0000ms, 0366ms total)
T1834 000:480 JLINK_WriteMem(0x20000000, 0x0134 Bytes, ...) - Data: 00 BE 0A E0 0D 78 2D 06 68 40 08 24 40 00 00 D3 ... -- CPU_WriteMem(308 bytes @ 0x20000000)  returns 0x134 (0001ms, 0367ms total)
T1834 000:481 JLINK_WriteReg(R0, 0x08000000)  returns 0x00 (0001ms, 0368ms total)
T1834 000:482 JLINK_WriteReg(R1, 0x007A1200)  returns 0x00 (0000ms, 0368ms total)
T1834 000:482 JLINK_WriteReg(R2, 0x00000001)  returns 0x00 (0000ms, 0368ms total)
T1834 000:482 JLINK_WriteReg(R3, 0x00000000)  returns 0x00 (0000ms, 0368ms total)
T1834 000:482 JLINK_WriteReg(R4, 0x00000000)  returns 0x00 (0000ms, 0368ms total)
T1834 000:482 JLINK_WriteReg(R5, 0x00000000)  returns 0x00 (0000ms, 0368ms total)
T1834 000:482 JLINK_WriteReg(R6, 0x00000000)  returns 0x00 (0000ms, 0368ms total)
T1834 000:482 JLINK_WriteReg(R7, 0x00000000)  returns 0x00 (0000ms, 0368ms total)
T1834 000:482 JLINK_WriteReg(R8, 0x00000000)  returns 0x00 (0000ms, 0368ms total)
T1834 000:482 JLINK_WriteReg(R9, 0x20000130)  returns 0x00 (0000ms, 0368ms total)
T1834 000:482 JLINK_WriteReg(R10, 0x00000000)  returns 0x00 (0000ms, 0368ms total)
T1834 000:482 JLINK_WriteReg(R11, 0x00000000)  returns 0x00 (0000ms, 0368ms total)
T1834 000:482 JLINK_WriteReg(R12, 0x00000000)  returns 0x00 (0000ms, 0368ms total)
T1834 000:482 JLINK_WriteReg(R13 (SP), 0x20001000)  returns 0x00 (0000ms, 0368ms total)
T1834 000:482 JLINK_WriteReg(R14, 0x20000001)  returns 0x00 (0000ms, 0368ms total)
T1834 000:482 JLINK_WriteReg(R15 (PC), 0x20000038)  returns 0x00 (0000ms, 0368ms total)
T1834 000:482 JLINK_WriteReg(XPSR, 0x01000000)  returns 0x00 (0000ms, 0368ms total)
T1834 000:482 JLINK_WriteReg(MSP, 0x20001000)  returns 0x00 (0001ms, 0369ms total)
T1834 000:483 JLINK_WriteReg(PSP, 0x20001000)  returns 0x00 (0000ms, 0369ms total)
T1834 000:483 JLINK_WriteReg(CFBP, 0x00000000)  returns 0x00 (0000ms, 0369ms total)
T1834 000:483 JLINK_SetBPEx(Addr = 0x20000000, Type = 0xFFFFFFF2) -- CPU_ReadMem(2 bytes @ 0x20000000)  returns 0x00000001 (0000ms, 0369ms total)
T1834 000:483 JLINK_Go() -- CPU_WriteMem(2 bytes @ 0x20000000) -- CPU_ReadMem(4 bytes @ 0xE0001000) -- CPU_WriteMem(4 bytes @ 0xE0002008) -- CPU_WriteMem(4 bytes @ 0xE000200C) -- CPU_WriteMem(4 bytes @ 0xE0002010) -- CPU_WriteMem(4 bytes @ 0xE0002014) -- CPU_WriteMem(4 bytes @ 0xE0002018) -- CPU_WriteMem(4 bytes @ 0xE000201C) -- CPU_WriteMem(4 bytes @ 0xE0001004) (0003ms, 0372ms total)
T1834 000:486 JLINK_IsHalted() -- CPU_ReadMem(2 bytes @ 0x20000000)  returns TRUE (0002ms, 0374ms total)
T1834 000:488 JLINK_ReadReg(R15 (PC))  returns 0x20000000 (0000ms, 0372ms total)
T1834 000:489 JLINK_ClrBPEx(BPHandle = 0x00000001)  returns 0x00 (0000ms, 0373ms total)
T1834 000:489 JLINK_ReadReg(R0)  returns 0x00000000 (0000ms, 0373ms total)
T1834 000:489 JLINK_WriteReg(R0, 0x08000000)  returns 0x00 (0000ms, 0373ms total)
T1834 000:489 JLINK_WriteReg(R1, 0x00000800)  returns 0x00 (0000ms, 0373ms total)
T1834 000:489 JLINK_WriteReg(R2, 0x000000FF)  returns 0x00 (0000ms, 0373ms total)
T1834 000:489 JLINK_WriteReg(R3, 0x00000000)  returns 0x00 (0000ms, 0373ms total)
T1834 000:489 JLINK_WriteReg(R4, 0x00000000)  returns 0x00 (0000ms, 0373ms total)
T1834 000:489 JLINK_WriteReg(R5, 0x00000000)  returns 0x00 (0000ms, 0373ms total)
T1834 000:489 JLINK_WriteReg(R6, 0x00000000)  returns 0x00 (0000ms, 0373ms total)
T1834 000:489 JLINK_WriteReg(R7, 0x00000000)  returns 0x00 (0001ms, 0374ms total)
T1834 000:490 JLINK_WriteReg(R8, 0x00000000)  returns 0x00 (0000ms, 0374ms total)
T1834 000:490 JLINK_WriteReg(R9, 0x20000130)  returns 0x00 (0000ms, 0374ms total)
T1834 000:490 JLINK_WriteReg(R10, 0x00000000)  returns 0x00 (0000ms, 0374ms total)
T1834 000:490 JLINK_WriteReg(R11, 0x00000000)  returns 0x00 (0000ms, 0374ms total)
T1834 000:490 JLINK_WriteReg(R12, 0x00000000)  returns 0x00 (0000ms, 0374ms total)
T1834 000:490 JLINK_WriteReg(R13 (SP), 0x20001000)  returns 0x00 (0000ms, 0374ms total)
T1834 000:490 JLINK_WriteReg(R14, 0x20000001)  returns 0x00 (0000ms, 0374ms total)
T1834 000:490 JLINK_WriteReg(R15 (PC), 0x20000020)  returns 0x00 (0000ms, 0374ms total)
T1834 000:490 JLINK_WriteReg(XPSR, 0x01000000)  returns 0x00 (0000ms, 0374ms total)
T1834 000:490 JLINK_WriteReg(MSP, 0x20001000)  returns 0x00 (0000ms, 0374ms total)
T1834 000:490 JLINK_WriteReg(PSP, 0x20001000)  returns 0x00 (0000ms, 0374ms total)
T1834 000:490 JLINK_WriteReg(CFBP, 0x00000000)  returns 0x00 (0000ms, 0374ms total)
T1834 000:490 JLINK_SetBPEx(Addr = 0x20000000, Type = 0xFFFFFFF2)  returns 0x00000002 (0000ms, 0374ms total)
T1834 000:490 JLINK_Go() -- CPU_ReadMem(4 bytes @ 0xE0001000) (0001ms, 0375ms total)
T1834 000:491 JLINK_IsHalted() -- CPU_ReadMem(2 bytes @ 0x20000000)  returns TRUE (0002ms, 0377ms total)
T1834 000:493 JLINK_ReadReg(R15 (PC))  returns 0x20000000 (0002ms, 0377ms total)
T1834 000:495 JLINK_ClrBPEx(BPHandle = 0x00000002)  returns 0x00 (0000ms, 0377ms total)
T1834 000:495 JLINK_ReadReg(R0)  returns 0x00000001 (0000ms, 0377ms total)
T1834 000:495 JLINK_WriteReg(R0, 0x08000000)  returns 0x00 (0000ms, 0377ms total)
T1834 000:495 JLINK_WriteReg(R1, 0x00000800)  returns 0x00 (0000ms, 0377ms total)
T1834 000:495 JLINK_WriteReg(R2, 0x000000FF)  returns 0x00 (0000ms, 0377ms total)
T1834 000:495 JLINK_WriteReg(R3, 0x00000000)  returns 0x00 (0000ms, 0377ms total)
T1834 000:495 JLINK_WriteReg(R4, 0x00000000)  returns 0x00 (0000ms, 0377ms total)
T1834 000:495 JLINK_WriteReg(R5, 0x00000000)  returns 0x00 (0000ms, 0377ms total)
T1834 000:495 JLINK_WriteReg(R6, 0x00000000)  returns 0x00 (0000ms, 0377ms total)
T1834 000:495 JLINK_WriteReg(R7, 0x00000000)  returns 0x00 (0000ms, 0377ms total)
T1834 000:495 JLINK_WriteReg(R8, 0x00000000)  returns 0x00 (0000ms, 0377ms total)
T1834 000:495 JLINK_WriteReg(R9, 0x20000130)  returns 0x00 (0000ms, 0377ms total)
T1834 000:495 JLINK_WriteReg(R10, 0x00000000)  returns 0x00 (0000ms, 0377ms total)
T1834 000:495 JLINK_WriteReg(R11, 0x00000000)  returns 0x00 (0000ms, 0377ms total)
T1834 000:496 JLINK_WriteReg(R12, 0x00000000)  returns 0x00 (0000ms, 0378ms total)
T1834 000:496 JLINK_WriteReg(R13 (SP), 0x20001000)  returns 0x00 (0000ms, 0378ms total)
T1834 000:496 JLINK_WriteReg(R14, 0x20000001)  returns 0x00 (0000ms, 0378ms total)
T1834 000:496 JLINK_WriteReg(R15 (PC), 0x200000A0)  returns 0x00 (0000ms, 0378ms total)
T1834 000:496 JLINK_WriteReg(XPSR, 0x01000000)  returns 0x00 (0000ms, 0378ms total)
T1834 000:496 JLINK_WriteReg(MSP, 0x20001000)  returns 0x00 (0000ms, 0378ms total)
T1834 000:496 JLINK_WriteReg(PSP, 0x20001000)  returns 0x00 (0000ms, 0378ms total)
T1834 000:496 JLINK_WriteReg(CFBP, 0x00000000)  returns 0x00 (0000ms, 0378ms total)
T1834 000:496 JLINK_SetBPEx(Addr = 0x20000000, Type = 0xFFFFFFF2)  returns 0x00000003 (0000ms, 0378ms total)
T1834 000:496 JLINK_Go() -- CPU_ReadMem(4 bytes @ 0xE0001000) (0001ms, 0379ms total)
T1834 000:497 JLINK_IsHalted()  returns FALSE (0001ms, 0380ms total)
T1834 000:566 JLINK_IsHalted() -- CPU_ReadMem(2 bytes @ 0x20000000)  returns TRUE (0002ms, 0381ms total)
T1834 000:568 JLINK_ReadReg(R15 (PC))  returns 0x20000000 (0000ms, 0379ms total)
T1834 000:568 JLINK_ClrBPEx(BPHandle = 0x00000003)  returns 0x00 (0000ms, 0379ms total)
T1834 000:568 JLINK_ReadReg(R0)  returns 0x00000000 (0000ms, 0379ms total)
T1834 000:569 JLINK_WriteReg(R0, 0x08000800)  returns 0x00 (0000ms, 0379ms total)
T1834 000:569 JLINK_WriteReg(R1, 0x00000800)  returns 0x00 (0000ms, 0379ms total)
T1834 000:569 JLINK_WriteReg(R2, 0x000000FF)  returns 0x00 (0000ms, 0379ms total)
T1834 000:569 JLINK_WriteReg(R3, 0x00000000)  returns 0x00 (0000ms, 0379ms total)
T1834 000:569 JLINK_WriteReg(R4, 0x00000000)  returns 0x00 (0000ms, 0379ms total)
T1834 000:569 JLINK_WriteReg(R5, 0x00000000)  returns 0x00 (0000ms, 0379ms total)
T1834 000:569 JLINK_WriteReg(R6, 0x00000000)  returns 0x00 (0000ms, 0379ms total)
T1834 000:569 JLINK_WriteReg(R7, 0x00000000)  returns 0x00 (0000ms, 0379ms total)
T1834 000:569 JLINK_WriteReg(R8, 0x00000000)  returns 0x00 (0000ms, 0379ms total)
T1834 000:569 JLINK_WriteReg(R9, 0x20000130)  returns 0x00 (0000ms, 0379ms total)
T1834 000:569 JLINK_WriteReg(R10, 0x00000000)  returns 0x00 (0000ms, 0379ms total)
T1834 000:569 JLINK_WriteReg(R11, 0x00000000)  returns 0x00 (0000ms, 0379ms total)
T1834 000:569 JLINK_WriteReg(R12, 0x00000000)  returns 0x00 (0000ms, 0379ms total)
T1834 000:569 JLINK_WriteReg(R13 (SP), 0x20001000)  returns 0x00 (0001ms, 0380ms total)
T1834 000:570 JLINK_WriteReg(R14, 0x20000001)  returns 0x00 (0000ms, 0380ms total)
T1834 000:570 JLINK_WriteReg(R15 (PC), 0x20000020)  returns 0x00 (0000ms, 0380ms total)
T1834 000:570 JLINK_WriteReg(XPSR, 0x01000000)  returns 0x00 (0000ms, 0380ms total)
T1834 000:570 JLINK_WriteReg(MSP, 0x20001000)  returns 0x00 (0000ms, 0380ms total)
T1834 000:570 JLINK_WriteReg(PSP, 0x20001000)  returns 0x00 (0000ms, 0380ms total)
T1834 000:570 JLINK_WriteReg(CFBP, 0x00000000)  returns 0x00 (0000ms, 0380ms total)
T1834 000:570 JLINK_SetBPEx(Addr = 0x20000000, Type = 0xFFFFFFF2)  returns 0x00000004 (0000ms, 0380ms total)
T1834 000:570 JLINK_Go() -- CPU_ReadMem(4 bytes @ 0xE0001000) (0001ms, 0381ms total)
T1834 000:571 JLINK_IsHalted() -- CPU_ReadMem(2 bytes @ 0x20000000)  returns TRUE (0003ms, 0384ms total)
T1834 000:574 JLINK_ReadReg(R15 (PC))  returns 0x20000000 (0000ms, 0381ms total)
T1834 000:574 JLINK_ClrBPEx(BPHandle = 0x00000004)  returns 0x00 (0000ms, 0381ms total)
T1834 000:574 JLINK_ReadReg(R0)  returns 0x00000001 (0000ms, 0381ms total)
T1834 000:574 JLINK_WriteReg(R0, 0x08000800)  returns 0x00 (0000ms, 0381ms total)
T1834 000:574 JLINK_WriteReg(R1, 0x00000800)  returns 0x00 (0000ms, 0381ms total)
T1834 000:574 JLINK_WriteReg(R2, 0x000000FF)  returns 0x00 (0000ms, 0381ms total)
T1834 000:574 JLINK_WriteReg(R3, 0x00000000)  returns 0x00 (0000ms, 0381ms total)
T1834 000:574 JLINK_WriteReg(R4, 0x00000000)  returns 0x00 (0000ms, 0381ms total)
T1834 000:574 JLINK_WriteReg(R5, 0x00000000)  returns 0x00 (0000ms, 0381ms total)
T1834 000:574 JLINK_WriteReg(R6, 0x00000000)  returns 0x00 (0000ms, 0381ms total)
T1834 000:574 JLINK_WriteReg(R7, 0x00000000)  returns 0x00 (0000ms, 0381ms total)
T1834 000:574 JLINK_WriteReg(R8, 0x00000000)  returns 0x00 (0000ms, 0381ms total)
T1834 000:574 JLINK_WriteReg(R9, 0x20000130)  returns 0x00 (0001ms, 0382ms total)
T1834 000:575 JLINK_WriteReg(R10, 0x00000000)  returns 0x00 (0000ms, 0382ms total)
T1834 000:575 JLINK_WriteReg(R11, 0x00000000)  returns 0x00 (0000ms, 0382ms total)
T1834 000:575 JLINK_WriteReg(R12, 0x00000000)  returns 0x00 (0000ms, 0382ms total)
T1834 000:575 JLINK_WriteReg(R13 (SP), 0x20001000)  returns 0x00 (0000ms, 0382ms total)
T1834 000:575 JLINK_WriteReg(R14, 0x20000001)  returns 0x00 (0000ms, 0382ms total)
T1834 000:575 JLINK_WriteReg(R15 (PC), 0x200000A0)  returns 0x00 (0000ms, 0382ms total)
T1834 000:575 JLINK_WriteReg(XPSR, 0x01000000)  returns 0x00 (0000ms, 0382ms total)
T1834 000:575 JLINK_WriteReg(MSP, 0x20001000)  returns 0x00 (0000ms, 0382ms total)
T1834 000:575 JLINK_WriteReg(PSP, 0x20001000)  returns 0x00 (0000ms, 0382ms total)
T1834 000:575 JLINK_WriteReg(CFBP, 0x00000000)  returns 0x00 (0000ms, 0382ms total)
T1834 000:575 JLINK_SetBPEx(Addr = 0x20000000, Type = 0xFFFFFFF2)  returns 0x00000005 (0000ms, 0382ms total)
T1834 000:575 JLINK_Go() -- CPU_ReadMem(4 bytes @ 0xE0001000) (0002ms, 0384ms total)
T1834 000:577 JLINK_IsHalted()  returns FALSE (0001ms, 0385ms total)
T1834 000:582 JLINK_IsHalted()  returns FALSE (0000ms, 0384ms total)
T1834 000:584 JLINK_IsHalted()  returns FALSE (0000ms, 0384ms total)
T1834 000:586 JLINK_IsHalted()  returns FALSE (0000ms, 0384ms total)
T1834 000:588 JLINK_IsHalted()  returns FALSE (0000ms, 0384ms total)
T1834 000:590 JLINK_IsHalted()  returns FALSE (0000ms, 0384ms total)
T1834 000:592 JLINK_IsHalted()  returns FALSE (0000ms, 0384ms total)
T1834 000:594 JLINK_IsHalted()  returns FALSE (0000ms, 0384ms total)
T1834 000:596 JLINK_IsHalted()  returns FALSE (0000ms, 0384ms total)
T1834 000:598 JLINK_IsHalted()  returns FALSE (0000ms, 0384ms total)
T1834 000:600 JLINK_IsHalted() -- CPU_ReadMem(2 bytes @ 0x20000000)  returns TRUE (0002ms, 0386ms total)
T1834 000:602 JLINK_ReadReg(R15 (PC))  returns 0x20000000 (0000ms, 0384ms total)
T1834 000:602 JLINK_ClrBPEx(BPHandle = 0x00000005)  returns 0x00 (0000ms, 0384ms total)
T1834 000:602 JLINK_ReadReg(R0)  returns 0x00000000 (0000ms, 0384ms total)
T1834 000:603 JLINK_WriteReg(R0, 0x08001000)  returns 0x00 (0000ms, 0384ms total)
T1834 000:603 JLINK_WriteReg(R1, 0x00000800)  returns 0x00 (0000ms, 0384ms total)
T1834 000:603 JLINK_WriteReg(R2, 0x000000FF)  returns 0x00 (0000ms, 0384ms total)
T1834 000:603 JLINK_WriteReg(R3, 0x00000000)  returns 0x00 (0000ms, 0384ms total)
T1834 000:603 JLINK_WriteReg(R4, 0x00000000)  returns 0x00 (0000ms, 0384ms total)
T1834 000:603 JLINK_WriteReg(R5, 0x00000000)  returns 0x00 (0000ms, 0384ms total)
T1834 000:603 JLINK_WriteReg(R6, 0x00000000)  returns 0x00 (0000ms, 0384ms total)
T1834 000:603 JLINK_WriteReg(R7, 0x00000000)  returns 0x00 (0000ms, 0384ms total)
T1834 000:603 JLINK_WriteReg(R8, 0x00000000)  returns 0x00 (0000ms, 0384ms total)
T1834 000:603 JLINK_WriteReg(R9, 0x20000130)  returns 0x00 (0001ms, 0385ms total)
T1834 000:604 JLINK_WriteReg(R10, 0x00000000)  returns 0x00 (0000ms, 0385ms total)
T1834 000:604 JLINK_WriteReg(R11, 0x00000000)  returns 0x00 (0000ms, 0385ms total)
T1834 000:604 JLINK_WriteReg(R12, 0x00000000)  returns 0x00 (0000ms, 0385ms total)
T1834 000:604 JLINK_WriteReg(R13 (SP), 0x20001000)  returns 0x00 (0000ms, 0385ms total)
T1834 000:604 JLINK_WriteReg(R14, 0x20000001)  returns 0x00 (0000ms, 0385ms total)
T1834 000:604 JLINK_WriteReg(R15 (PC), 0x20000020)  returns 0x00 (0000ms, 0385ms total)
T1834 000:604 JLINK_WriteReg(XPSR, 0x01000000)  returns 0x00 (0000ms, 0385ms total)
T1834 000:604 JLINK_WriteReg(MSP, 0x20001000)  returns 0x00 (0000ms, 0385ms total)
T1834 000:604 JLINK_WriteReg(PSP, 0x20001000)  returns 0x00 (0000ms, 0385ms total)
T1834 000:604 JLINK_WriteReg(CFBP, 0x00000000)  returns 0x00 (0000ms, 0385ms total)
T1834 000:604 JLINK_SetBPEx(Addr = 0x20000000, Type = 0xFFFFFFF2)  returns 0x00000006 (0000ms, 0385ms total)
T1834 000:604 JLINK_Go() -- CPU_ReadMem(4 bytes @ 0xE0001000) (0002ms, 0387ms total)
T1834 000:606 JLINK_IsHalted() -- CPU_ReadMem(2 bytes @ 0x20000000)  returns TRUE (0003ms, 0390ms total)
T1834 000:609 JLINK_ReadReg(R15 (PC))  returns 0x20000000 (0000ms, 0387ms total)
T1834 000:609 JLINK_ClrBPEx(BPHandle = 0x00000006)  returns 0x00 (0000ms, 0387ms total)
T1834 000:609 JLINK_ReadReg(R0)  returns 0x00000001 (0000ms, 0387ms total)
T1834 000:609 JLINK_WriteReg(R0, 0x08001000)  returns 0x00 (0000ms, 0387ms total)
T1834 000:609 JLINK_WriteReg(R1, 0x00000800)  returns 0x00 (0000ms, 0387ms total)
T1834 000:609 JLINK_WriteReg(R2, 0x000000FF)  returns 0x00 (0000ms, 0387ms total)
T1834 000:609 JLINK_WriteReg(R3, 0x00000000)  returns 0x00 (0000ms, 0387ms total)
T1834 000:609 JLINK_WriteReg(R4, 0x00000000)  returns 0x00 (0000ms, 0387ms total)
T1834 000:609 JLINK_WriteReg(R5, 0x00000000)  returns 0x00 (0000ms, 0387ms total)
T1834 000:609 JLINK_WriteReg(R6, 0x00000000)  returns 0x00 (0000ms, 0387ms total)
T1834 000:609 JLINK_WriteReg(R7, 0x00000000)  returns 0x00 (0000ms, 0387ms total)
T1834 000:609 JLINK_WriteReg(R8, 0x00000000)  returns 0x00 (0000ms, 0387ms total)
T1834 000:610 JLINK_WriteReg(R9, 0x20000130)  returns 0x00 (0000ms, 0388ms total)
T1834 000:610 JLINK_WriteReg(R10, 0x00000000)  returns 0x00 (0000ms, 0388ms total)
T1834 000:610 JLINK_WriteReg(R11, 0x00000000)  returns 0x00 (0000ms, 0388ms total)
T1834 000:610 JLINK_WriteReg(R12, 0x00000000)  returns 0x00 (0000ms, 0388ms total)
T1834 000:610 JLINK_WriteReg(R13 (SP), 0x20001000)  returns 0x00 (0000ms, 0388ms total)
T1834 000:610 JLINK_WriteReg(R14, 0x20000001)  returns 0x00 (0000ms, 0388ms total)
T1834 000:610 JLINK_WriteReg(R15 (PC), 0x200000A0)  returns 0x00 (0000ms, 0388ms total)
T1834 000:610 JLINK_WriteReg(XPSR, 0x01000000)  returns 0x00 (0000ms, 0388ms total)
T1834 000:610 JLINK_WriteReg(MSP, 0x20001000)  returns 0x00 (0000ms, 0388ms total)
T1834 000:610 JLINK_WriteReg(PSP, 0x20001000)  returns 0x00 (0000ms, 0388ms total)
T1834 000:610 JLINK_WriteReg(CFBP, 0x00000000)  returns 0x00 (0000ms, 0388ms total)
T1834 000:610 JLINK_SetBPEx(Addr = 0x20000000, Type = 0xFFFFFFF2)  returns 0x00000007 (0000ms, 0388ms total)
T1834 000:610 JLINK_Go() -- CPU_ReadMem(4 bytes @ 0xE0001000) (0002ms, 0390ms total)
T1834 000:612 JLINK_IsHalted()  returns FALSE (0000ms, 0390ms total)
T1834 000:615 JLINK_IsHalted()  returns FALSE (0000ms, 0390ms total)
T1834 000:617 JLINK_IsHalted()  returns FALSE (0000ms, 0390ms total)
T1834 000:619 JLINK_IsHalted()  returns FALSE (0000ms, 0390ms total)
T1834 000:621 JLINK_IsHalted()  returns FALSE (0000ms, 0390ms total)
T1834 000:623 JLINK_IsHalted()  returns FALSE (0000ms, 0390ms total)
T1834 000:625 JLINK_IsHalted()  returns FALSE (0000ms, 0390ms total)
T1834 000:627 JLINK_IsHalted()  returns FALSE (0000ms, 0390ms total)
T1834 000:629 JLINK_IsHalted()  returns FALSE (0000ms, 0390ms total)
T1834 000:631 JLINK_IsHalted()  returns FALSE (0000ms, 0390ms total)
T1834 000:633 JLINK_IsHalted()  returns FALSE (0000ms, 0390ms total)
T1834 000:635 JLINK_IsHalted() -- CPU_ReadMem(2 bytes @ 0x20000000)  returns TRUE (0002ms, 0392ms total)
T1834 000:637 JLINK_ReadReg(R15 (PC))  returns 0x20000000 (0000ms, 0390ms total)
T1834 000:637 JLINK_ClrBPEx(BPHandle = 0x00000007)  returns 0x00 (0000ms, 0390ms total)
T1834 000:637 JLINK_ReadReg(R0)  returns 0x00000000 (0000ms, 0390ms total)
T1834 000:638 JLINK_WriteReg(R0, 0x08001800)  returns 0x00 (0000ms, 0390ms total)
T1834 000:638 JLINK_WriteReg(R1, 0x00000800)  returns 0x00 (0000ms, 0390ms total)
T1834 000:638 JLINK_WriteReg(R2, 0x000000FF)  returns 0x00 (0000ms, 0390ms total)
T1834 000:638 JLINK_WriteReg(R3, 0x00000000)  returns 0x00 (0000ms, 0390ms total)
T1834 000:638 JLINK_WriteReg(R4, 0x00000000)  returns 0x00 (0000ms, 0390ms total)
T1834 000:638 JLINK_WriteReg(R5, 0x00000000)  returns 0x00 (0000ms, 0390ms total)
T1834 000:638 JLINK_WriteReg(R6, 0x00000000)  returns 0x00 (0000ms, 0390ms total)
T1834 000:638 JLINK_WriteReg(R7, 0x00000000)  returns 0x00 (0000ms, 0390ms total)
T1834 000:638 JLINK_WriteReg(R8, 0x00000000)  returns 0x00 (0000ms, 0390ms total)
T1834 000:639 JLINK_WriteReg(R9, 0x20000130)  returns 0x00 (0000ms, 0390ms total)
T1834 000:639 JLINK_WriteReg(R10, 0x00000000)  returns 0x00 (0000ms, 0390ms total)
T1834 000:639 JLINK_WriteReg(R11, 0x00000000)  returns 0x00 (0000ms, 0390ms total)
T1834 000:639 JLINK_WriteReg(R12, 0x00000000)  returns 0x00 (0000ms, 0390ms total)
T1834 000:639 JLINK_WriteReg(R13 (SP), 0x20001000)  returns 0x00 (0000ms, 0390ms total)
T1834 000:639 JLINK_WriteReg(R14, 0x20000001)  returns 0x00 (0000ms, 0390ms total)
T1834 000:639 JLINK_WriteReg(R15 (PC), 0x20000020)  returns 0x00 (0000ms, 0390ms total)
T1834 000:639 JLINK_WriteReg(XPSR, 0x01000000)  returns 0x00 (0000ms, 0390ms total)
T1834 000:639 JLINK_WriteReg(MSP, 0x20001000)  returns 0x00 (0000ms, 0390ms total)
T1834 000:639 JLINK_WriteReg(PSP, 0x20001000)  returns 0x00 (0000ms, 0390ms total)
T1834 000:639 JLINK_WriteReg(CFBP, 0x00000000)  returns 0x00 (0000ms, 0390ms total)
T1834 000:639 JLINK_SetBPEx(Addr = 0x20000000, Type = 0xFFFFFFF2)  returns 0x00000008 (0000ms, 0390ms total)
T1834 000:639 JLINK_Go() -- CPU_ReadMem(4 bytes @ 0xE0001000) (0002ms, 0392ms total)
T1834 000:641 JLINK_IsHalted() -- CPU_ReadMem(2 bytes @ 0x20000000)  returns TRUE (0002ms, 0394ms total)
T1834 000:643 JLINK_ReadReg(R15 (PC))  returns 0x20000000 (0000ms, 0392ms total)
T1834 000:643 JLINK_ClrBPEx(BPHandle = 0x00000008)  returns 0x00 (0000ms, 0392ms total)
T1834 000:643 JLINK_ReadReg(R0)  returns 0x00000001 (0000ms, 0392ms total)
T1834 000:643 JLINK_WriteReg(R0, 0x08001800)  returns 0x00 (0000ms, 0392ms total)
T1834 000:643 JLINK_WriteReg(R1, 0x00000800)  returns 0x00 (0000ms, 0392ms total)
T1834 000:643 JLINK_WriteReg(R2, 0x000000FF)  returns 0x00 (0000ms, 0392ms total)
T1834 000:643 JLINK_WriteReg(R3, 0x00000000)  returns 0x00 (0000ms, 0392ms total)
T1834 000:643 JLINK_WriteReg(R4, 0x00000000)  returns 0x00 (0000ms, 0392ms total)
T1834 000:643 JLINK_WriteReg(R5, 0x00000000)  returns 0x00 (0000ms, 0392ms total)
T1834 000:644 JLINK_WriteReg(R6, 0x00000000)  returns 0x00 (0000ms, 0393ms total)
T1834 000:644 JLINK_WriteReg(R7, 0x00000000)  returns 0x00 (0000ms, 0393ms total)
T1834 000:644 JLINK_WriteReg(R8, 0x00000000)  returns 0x00 (0000ms, 0393ms total)
T1834 000:644 JLINK_WriteReg(R9, 0x20000130)  returns 0x00 (0000ms, 0393ms total)
T1834 000:644 JLINK_WriteReg(R10, 0x00000000)  returns 0x00 (0000ms, 0393ms total)
T1834 000:644 JLINK_WriteReg(R11, 0x00000000)  returns 0x00 (0000ms, 0393ms total)
T1834 000:644 JLINK_WriteReg(R12, 0x00000000)  returns 0x00 (0000ms, 0393ms total)
T1834 000:644 JLINK_WriteReg(R13 (SP), 0x20001000)  returns 0x00 (0000ms, 0393ms total)
T1834 000:644 JLINK_WriteReg(R14, 0x20000001)  returns 0x00 (0000ms, 0393ms total)
T1834 000:644 JLINK_WriteReg(R15 (PC), 0x200000A0)  returns 0x00 (0000ms, 0393ms total)
T1834 000:644 JLINK_WriteReg(XPSR, 0x01000000)  returns 0x00 (0000ms, 0393ms total)
T1834 000:644 JLINK_WriteReg(MSP, 0x20001000)  returns 0x00 (0000ms, 0393ms total)
T1834 000:644 JLINK_WriteReg(PSP, 0x20001000)  returns 0x00 (0000ms, 0393ms total)
T1834 000:644 JLINK_WriteReg(CFBP, 0x00000000)  returns 0x00 (0000ms, 0393ms total)
T1834 000:644 JLINK_SetBPEx(Addr = 0x20000000, Type = 0xFFFFFFF2)  returns 0x00000009 (0000ms, 0393ms total)
T1834 000:644 JLINK_Go() -- CPU_ReadMem(4 bytes @ 0xE0001000) (0002ms, 0395ms total)
T1834 000:646 JLINK_IsHalted()  returns FALSE (0000ms, 0395ms total)
T1834 000:649 JLINK_IsHalted()  returns FALSE (0000ms, 0395ms total)
T1834 000:651 JLINK_IsHalted()  returns FALSE (0000ms, 0395ms total)
T1834 000:653 JLINK_IsHalted()  returns FALSE (0000ms, 0395ms total)
T1834 000:655 JLINK_IsHalted()  returns FALSE (0000ms, 0395ms total)
T1834 000:657 JLINK_IsHalted()  returns FALSE (0000ms, 0395ms total)
T1834 000:659 JLINK_IsHalted()  returns FALSE (0000ms, 0395ms total)
T1834 000:661 JLINK_IsHalted()  returns FALSE (0000ms, 0395ms total)
T1834 000:663 JLINK_IsHalted()  returns FALSE (0000ms, 0395ms total)
T1834 000:665 JLINK_IsHalted()  returns FALSE (0000ms, 0395ms total)
T1834 000:667 JLINK_IsHalted()  returns FALSE (0000ms, 0395ms total)
T1834 000:669 JLINK_IsHalted() -- CPU_ReadMem(2 bytes @ 0x20000000)  returns TRUE (0002ms, 0397ms total)
T1834 000:671 JLINK_ReadReg(R15 (PC))  returns 0x20000000 (0000ms, 0395ms total)
T1834 000:671 JLINK_ClrBPEx(BPHandle = 0x00000009)  returns 0x00 (0000ms, 0395ms total)
T1834 000:671 JLINK_ReadReg(R0)  returns 0x00000000 (0000ms, 0395ms total)
T1834 000:672 JLINK_WriteReg(R0, 0x08002000)  returns 0x00 (0000ms, 0395ms total)
T1834 000:672 JLINK_WriteReg(R1, 0x00000800)  returns 0x00 (0000ms, 0395ms total)
T1834 000:672 JLINK_WriteReg(R2, 0x000000FF)  returns 0x00 (0000ms, 0395ms total)
T1834 000:672 JLINK_WriteReg(R3, 0x00000000)  returns 0x00 (0000ms, 0395ms total)
T1834 000:672 JLINK_WriteReg(R4, 0x00000000)  returns 0x00 (0000ms, 0395ms total)
T1834 000:672 JLINK_WriteReg(R5, 0x00000000)  returns 0x00 (0000ms, 0395ms total)
T1834 000:672 JLINK_WriteReg(R6, 0x00000000)  returns 0x00 (0000ms, 0395ms total)
T1834 000:672 JLINK_WriteReg(R7, 0x00000000)  returns 0x00 (0000ms, 0395ms total)
T1834 000:672 JLINK_WriteReg(R8, 0x00000000)  returns 0x00 (0000ms, 0395ms total)
T1834 000:672 JLINK_WriteReg(R9, 0x20000130)  returns 0x00 (0000ms, 0395ms total)
T1834 000:672 JLINK_WriteReg(R10, 0x00000000)  returns 0x00 (0000ms, 0395ms total)
T1834 000:673 JLINK_WriteReg(R11, 0x00000000)  returns 0x00 (0000ms, 0396ms total)
T1834 000:673 JLINK_WriteReg(R12, 0x00000000)  returns 0x00 (0000ms, 0396ms total)
T1834 000:673 JLINK_WriteReg(R13 (SP), 0x20001000)  returns 0x00 (0000ms, 0396ms total)
T1834 000:673 JLINK_WriteReg(R14, 0x20000001)  returns 0x00 (0000ms, 0396ms total)
T1834 000:673 JLINK_WriteReg(R15 (PC), 0x20000020)  returns 0x00 (0000ms, 0396ms total)
T1834 000:673 JLINK_WriteReg(XPSR, 0x01000000)  returns 0x00 (0000ms, 0396ms total)
T1834 000:673 JLINK_WriteReg(MSP, 0x20001000)  returns 0x00 (0000ms, 0396ms total)
T1834 000:673 JLINK_WriteReg(PSP, 0x20001000)  returns 0x00 (0000ms, 0396ms total)
T1834 000:673 JLINK_WriteReg(CFBP, 0x00000000)  returns 0x00 (0000ms, 0396ms total)
T1834 000:673 JLINK_SetBPEx(Addr = 0x20000000, Type = 0xFFFFFFF2)  returns 0x0000000A (0000ms, 0396ms total)
T1834 000:673 JLINK_Go() -- CPU_ReadMem(4 bytes @ 0xE0001000) (0002ms, 0398ms total)
T1834 000:675 JLINK_IsHalted() -- CPU_ReadMem(2 bytes @ 0x20000000)  returns TRUE (0002ms, 0400ms total)
T1834 000:677 JLINK_ReadReg(R15 (PC))  returns 0x20000000 (0000ms, 0398ms total)
T1834 000:677 JLINK_ClrBPEx(BPHandle = 0x0000000A)  returns 0x00 (0000ms, 0398ms total)
T1834 000:677 JLINK_ReadReg(R0)  returns 0x00000001 (0000ms, 0398ms total)
T1834 000:677 JLINK_WriteReg(R0, 0x08002000)  returns 0x00 (0000ms, 0398ms total)
T1834 000:677 JLINK_WriteReg(R1, 0x00000800)  returns 0x00 (0000ms, 0398ms total)
T1834 000:677 JLINK_WriteReg(R2, 0x000000FF)  returns 0x00 (0000ms, 0398ms total)
T1834 000:677 JLINK_WriteReg(R3, 0x00000000)  returns 0x00 (0000ms, 0398ms total)
T1834 000:677 JLINK_WriteReg(R4, 0x00000000)  returns 0x00 (0000ms, 0398ms total)
T1834 000:677 JLINK_WriteReg(R5, 0x00000000)  returns 0x00 (0000ms, 0398ms total)
T1834 000:677 JLINK_WriteReg(R6, 0x00000000)  returns 0x00 (0000ms, 0398ms total)
T1834 000:677 JLINK_WriteReg(R7, 0x00000000)  returns 0x00 (0001ms, 0399ms total)
T1834 000:678 JLINK_WriteReg(R8, 0x00000000)  returns 0x00 (0000ms, 0399ms total)
T1834 000:678 JLINK_WriteReg(R9, 0x20000130)  returns 0x00 (0000ms, 0399ms total)
T1834 000:678 JLINK_WriteReg(R10, 0x00000000)  returns 0x00 (0000ms, 0399ms total)
T1834 000:678 JLINK_WriteReg(R11, 0x00000000)  returns 0x00 (0000ms, 0399ms total)
T1834 000:678 JLINK_WriteReg(R12, 0x00000000)  returns 0x00 (0000ms, 0399ms total)
T1834 000:678 JLINK_WriteReg(R13 (SP), 0x20001000)  returns 0x00 (0000ms, 0399ms total)
T1834 000:678 JLINK_WriteReg(R14, 0x20000001)  returns 0x00 (0000ms, 0399ms total)
T1834 000:678 JLINK_WriteReg(R15 (PC), 0x200000A0)  returns 0x00 (0000ms, 0399ms total)
T1834 000:678 JLINK_WriteReg(XPSR, 0x01000000)  returns 0x00 (0000ms, 0399ms total)
T1834 000:678 JLINK_WriteReg(MSP, 0x20001000)  returns 0x00 (0000ms, 0399ms total)
T1834 000:678 JLINK_WriteReg(PSP, 0x20001000)  returns 0x00 (0000ms, 0399ms total)
T1834 000:678 JLINK_WriteReg(CFBP, 0x00000000)  returns 0x00 (0000ms, 0399ms total)
T1834 000:678 JLINK_SetBPEx(Addr = 0x20000000, Type = 0xFFFFFFF2)  returns 0x0000000B (0000ms, 0399ms total)
T1834 000:678 JLINK_Go() -- CPU_ReadMem(4 bytes @ 0xE0001000) (0002ms, 0401ms total)
T1834 000:680 JLINK_IsHalted()  returns FALSE (0000ms, 0401ms total)
T1834 000:683 JLINK_IsHalted()  returns FALSE (0000ms, 0401ms total)
T1834 000:686 JLINK_IsHalted()  returns FALSE (0000ms, 0401ms total)
T1834 000:688 JLINK_IsHalted()  returns FALSE (0000ms, 0401ms total)
T1834 000:690 JLINK_IsHalted()  returns FALSE (0000ms, 0401ms total)
T1834 000:692 JLINK_IsHalted()  returns FALSE (0000ms, 0401ms total)
T1834 000:694 JLINK_IsHalted()  returns FALSE (0000ms, 0401ms total)
T1834 000:696 JLINK_IsHalted()  returns FALSE (0000ms, 0401ms total)
T1834 000:698 JLINK_IsHalted()  returns FALSE (0000ms, 0401ms total)
T1834 000:700 JLINK_IsHalted()  returns FALSE (0000ms, 0401ms total)
T1834 000:704 JLINK_IsHalted() -- CPU_ReadMem(2 bytes @ 0x20000000)  returns TRUE (0002ms, 0403ms total)
T1834 000:706 JLINK_ReadReg(R15 (PC))  returns 0x20000000 (0000ms, 0401ms total)
T1834 000:706 JLINK_ClrBPEx(BPHandle = 0x0000000B)  returns 0x00 (0000ms, 0401ms total)
T1834 000:706 JLINK_ReadReg(R0)  returns 0x00000000 (0000ms, 0401ms total)
T1834 000:707 JLINK_WriteReg(R0, 0x08002800)  returns 0x00 (0000ms, 0401ms total)
T1834 000:707 JLINK_WriteReg(R1, 0x00000800)  returns 0x00 (0000ms, 0401ms total)
T1834 000:707 JLINK_WriteReg(R2, 0x000000FF)  returns 0x00 (0000ms, 0401ms total)
T1834 000:707 JLINK_WriteReg(R3, 0x00000000)  returns 0x00 (0000ms, 0401ms total)
T1834 000:707 JLINK_WriteReg(R4, 0x00000000)  returns 0x00 (0000ms, 0401ms total)
T1834 000:707 JLINK_WriteReg(R5, 0x00000000)  returns 0x00 (0000ms, 0401ms total)
T1834 000:707 JLINK_WriteReg(R6, 0x00000000)  returns 0x00 (0000ms, 0401ms total)
T1834 000:707 JLINK_WriteReg(R7, 0x00000000)  returns 0x00 (0000ms, 0401ms total)
T1834 000:707 JLINK_WriteReg(R8, 0x00000000)  returns 0x00 (0000ms, 0401ms total)
T1834 000:707 JLINK_WriteReg(R9, 0x20000130)  returns 0x00 (0000ms, 0401ms total)
T1834 000:707 JLINK_WriteReg(R10, 0x00000000)  returns 0x00 (0000ms, 0401ms total)
T1834 000:707 JLINK_WriteReg(R11, 0x00000000)  returns 0x00 (0001ms, 0402ms total)
T1834 000:708 JLINK_WriteReg(R12, 0x00000000)  returns 0x00 (0000ms, 0402ms total)
T1834 000:708 JLINK_WriteReg(R13 (SP), 0x20001000)  returns 0x00 (0000ms, 0402ms total)
T1834 000:708 JLINK_WriteReg(R14, 0x20000001)  returns 0x00 (0000ms, 0402ms total)
T1834 000:708 JLINK_WriteReg(R15 (PC), 0x20000020)  returns 0x00 (0000ms, 0402ms total)
T1834 000:708 JLINK_WriteReg(XPSR, 0x01000000)  returns 0x00 (0000ms, 0402ms total)
T1834 000:708 JLINK_WriteReg(MSP, 0x20001000)  returns 0x00 (0000ms, 0402ms total)
T1834 000:708 JLINK_WriteReg(PSP, 0x20001000)  returns 0x00 (0000ms, 0402ms total)
T1834 000:708 JLINK_WriteReg(CFBP, 0x00000000)  returns 0x00 (0000ms, 0402ms total)
T1834 000:708 JLINK_SetBPEx(Addr = 0x20000000, Type = 0xFFFFFFF2)  returns 0x0000000C (0000ms, 0402ms total)
T1834 000:708 JLINK_Go() -- CPU_ReadMem(4 bytes @ 0xE0001000) (0001ms, 0403ms total)
T1834 000:710 JLINK_IsHalted() -- CPU_ReadMem(2 bytes @ 0x20000000)  returns TRUE (0002ms, 0406ms total)
T1834 000:712 JLINK_ReadReg(R15 (PC))  returns 0x20000000 (0000ms, 0404ms total)
T1834 000:712 JLINK_ClrBPEx(BPHandle = 0x0000000C)  returns 0x00 (0000ms, 0404ms total)
T1834 000:712 JLINK_ReadReg(R0)  returns 0x00000001 (0000ms, 0404ms total)
T1834 000:712 JLINK_WriteReg(R0, 0x08002800)  returns 0x00 (0000ms, 0404ms total)
T1834 000:712 JLINK_WriteReg(R1, 0x00000800)  returns 0x00 (0000ms, 0404ms total)
T1834 000:712 JLINK_WriteReg(R2, 0x000000FF)  returns 0x00 (0000ms, 0404ms total)
T1834 000:712 JLINK_WriteReg(R3, 0x00000000)  returns 0x00 (0000ms, 0404ms total)
T1834 000:712 JLINK_WriteReg(R4, 0x00000000)  returns 0x00 (0000ms, 0404ms total)
T1834 000:712 JLINK_WriteReg(R5, 0x00000000)  returns 0x00 (0000ms, 0404ms total)
T1834 000:713 JLINK_WriteReg(R6, 0x00000000)  returns 0x00 (0000ms, 0405ms total)
T1834 000:713 JLINK_WriteReg(R7, 0x00000000)  returns 0x00 (0000ms, 0405ms total)
T1834 000:713 JLINK_WriteReg(R8, 0x00000000)  returns 0x00 (0000ms, 0405ms total)
T1834 000:713 JLINK_WriteReg(R9, 0x20000130)  returns 0x00 (0000ms, 0405ms total)
T1834 000:713 JLINK_WriteReg(R10, 0x00000000)  returns 0x00 (0000ms, 0405ms total)
T1834 000:713 JLINK_WriteReg(R11, 0x00000000)  returns 0x00 (0000ms, 0405ms total)
T1834 000:713 JLINK_WriteReg(R12, 0x00000000)  returns 0x00 (0000ms, 0405ms total)
T1834 000:713 JLINK_WriteReg(R13 (SP), 0x20001000)  returns 0x00 (0000ms, 0405ms total)
T1834 000:713 JLINK_WriteReg(R14, 0x20000001)  returns 0x00 (0000ms, 0405ms total)
T1834 000:713 JLINK_WriteReg(R15 (PC), 0x200000A0)  returns 0x00 (0000ms, 0405ms total)
T1834 000:713 JLINK_WriteReg(XPSR, 0x01000000)  returns 0x00 (0000ms, 0405ms total)
T1834 000:713 JLINK_WriteReg(MSP, 0x20001000)  returns 0x00 (0000ms, 0405ms total)
T1834 000:713 JLINK_WriteReg(PSP, 0x20001000)  returns 0x00 (0000ms, 0405ms total)
T1834 000:713 JLINK_WriteReg(CFBP, 0x00000000)  returns 0x00 (0000ms, 0405ms total)
T1834 000:713 JLINK_SetBPEx(Addr = 0x20000000, Type = 0xFFFFFFF2)  returns 0x0000000D (0000ms, 0405ms total)
T1834 000:713 JLINK_Go() -- CPU_ReadMem(4 bytes @ 0xE0001000) (0002ms, 0407ms total)
T1834 000:715 JLINK_IsHalted()  returns FALSE (0000ms, 0407ms total)
T1834 000:723 JLINK_IsHalted()  returns FALSE (0000ms, 0407ms total)
T1834 000:725 JLINK_IsHalted()  returns FALSE (0000ms, 0407ms total)
T1834 000:729 JLINK_IsHalted()  returns FALSE (0000ms, 0407ms total)
T1834 000:733 JLINK_IsHalted()  returns FALSE (0000ms, 0407ms total)
T1834 000:758 JLINK_IsHalted() -- CPU_ReadMem(2 bytes @ 0x20000000)  returns TRUE (0002ms, 0409ms total)
T1834 000:760 JLINK_ReadReg(R15 (PC))  returns 0x20000000 (0000ms, 0407ms total)
T1834 000:760 JLINK_ClrBPEx(BPHandle = 0x0000000D)  returns 0x00 (0000ms, 0407ms total)
T1834 000:760 JLINK_ReadReg(R0)  returns 0x00000000 (0000ms, 0407ms total)
T1834 000:761 JLINK_WriteReg(R0, 0x08003000)  returns 0x00 (0000ms, 0407ms total)
T1834 000:761 JLINK_WriteReg(R1, 0x00000800)  returns 0x00 (0000ms, 0407ms total)
T1834 000:761 JLINK_WriteReg(R2, 0x000000FF)  returns 0x00 (0000ms, 0407ms total)
T1834 000:761 JLINK_WriteReg(R3, 0x00000000)  returns 0x00 (0000ms, 0407ms total)
T1834 000:761 JLINK_WriteReg(R4, 0x00000000)  returns 0x00 (0000ms, 0407ms total)
T1834 000:761 JLINK_WriteReg(R5, 0x00000000)  returns 0x00 (0000ms, 0407ms total)
T1834 000:761 JLINK_WriteReg(R6, 0x00000000)  returns 0x00 (0000ms, 0407ms total)
T1834 000:761 JLINK_WriteReg(R7, 0x00000000)  returns 0x00 (0000ms, 0407ms total)
T1834 000:761 JLINK_WriteReg(R8, 0x00000000)  returns 0x00 (0000ms, 0407ms total)
T1834 000:761 JLINK_WriteReg(R9, 0x20000130)  returns 0x00 (0000ms, 0407ms total)
T1834 000:761 JLINK_WriteReg(R10, 0x00000000)  returns 0x00 (0000ms, 0407ms total)
T1834 000:761 JLINK_WriteReg(R11, 0x00000000)  returns 0x00 (0000ms, 0407ms total)
T1834 000:761 JLINK_WriteReg(R12, 0x00000000)  returns 0x00 (0000ms, 0407ms total)
T1834 000:761 JLINK_WriteReg(R13 (SP), 0x20001000)  returns 0x00 (0000ms, 0407ms total)
T1834 000:761 JLINK_WriteReg(R14, 0x20000001)  returns 0x00 (0000ms, 0407ms total)
T1834 000:761 JLINK_WriteReg(R15 (PC), 0x20000020)  returns 0x00 (0000ms, 0407ms total)
T1834 000:761 JLINK_WriteReg(XPSR, 0x01000000)  returns 0x00 (0002ms, 0409ms total)
T1834 000:763 JLINK_WriteReg(MSP, 0x20001000)  returns 0x00 (0000ms, 0409ms total)
T1834 000:763 JLINK_WriteReg(PSP, 0x20001000)  returns 0x00 (0000ms, 0409ms total)
T1834 000:763 JLINK_WriteReg(CFBP, 0x00000000)  returns 0x00 (0000ms, 0409ms total)
T1834 000:763 JLINK_SetBPEx(Addr = 0x20000000, Type = 0xFFFFFFF2)  returns 0x0000000E (0000ms, 0409ms total)
T1834 000:763 JLINK_Go() -- CPU_ReadMem(4 bytes @ 0xE0001000) (0001ms, 0410ms total)
T1834 000:764 JLINK_IsHalted() -- CPU_ReadMem(2 bytes @ 0x20000000)  returns TRUE (0002ms, 0412ms total)
T1834 000:766 JLINK_ReadReg(R15 (PC))  returns 0x20000000 (0000ms, 0410ms total)
T1834 000:766 JLINK_ClrBPEx(BPHandle = 0x0000000E)  returns 0x00 (0000ms, 0410ms total)
T1834 000:766 JLINK_ReadReg(R0)  returns 0x00000001 (0000ms, 0410ms total)
T1834 000:767 JLINK_WriteReg(R0, 0x08003000)  returns 0x00 (0000ms, 0411ms total)
T1834 000:767 JLINK_WriteReg(R1, 0x00000800)  returns 0x00 (0000ms, 0411ms total)
T1834 000:767 JLINK_WriteReg(R2, 0x000000FF)  returns 0x00 (0000ms, 0411ms total)
T1834 000:767 JLINK_WriteReg(R3, 0x00000000)  returns 0x00 (0000ms, 0411ms total)
T1834 000:767 JLINK_WriteReg(R4, 0x00000000)  returns 0x00 (0000ms, 0411ms total)
T1834 000:767 JLINK_WriteReg(R5, 0x00000000)  returns 0x00 (0000ms, 0411ms total)
T1834 000:767 JLINK_WriteReg(R6, 0x00000000)  returns 0x00 (0000ms, 0411ms total)
T1834 000:767 JLINK_WriteReg(R7, 0x00000000)  returns 0x00 (0000ms, 0411ms total)
T1834 000:767 JLINK_WriteReg(R8, 0x00000000)  returns 0x00 (0000ms, 0411ms total)
T1834 000:767 JLINK_WriteReg(R9, 0x20000130)  returns 0x00 (0000ms, 0411ms total)
T1834 000:767 JLINK_WriteReg(R10, 0x00000000)  returns 0x00 (0000ms, 0411ms total)
T1834 000:767 JLINK_WriteReg(R11, 0x00000000)  returns 0x00 (0000ms, 0411ms total)
T1834 000:767 JLINK_WriteReg(R12, 0x00000000)  returns 0x00 (0000ms, 0411ms total)
T1834 000:767 JLINK_WriteReg(R13 (SP), 0x20001000)  returns 0x00 (0000ms, 0411ms total)
T1834 000:767 JLINK_WriteReg(R14, 0x20000001)  returns 0x00 (0000ms, 0411ms total)
T1834 000:767 JLINK_WriteReg(R15 (PC), 0x200000A0)  returns 0x00 (0000ms, 0411ms total)
T1834 000:767 JLINK_WriteReg(XPSR, 0x01000000)  returns 0x00 (0000ms, 0411ms total)
T1834 000:767 JLINK_WriteReg(MSP, 0x20001000)  returns 0x00 (0000ms, 0411ms total)
T1834 000:767 JLINK_WriteReg(PSP, 0x20001000)  returns 0x00 (0000ms, 0411ms total)
T1834 000:767 JLINK_WriteReg(CFBP, 0x00000000)  returns 0x00 (0000ms, 0411ms total)
T1834 000:767 JLINK_SetBPEx(Addr = 0x20000000, Type = 0xFFFFFFF2)  returns 0x0000000F (0000ms, 0411ms total)
T1834 000:767 JLINK_Go() -- CPU_ReadMem(4 bytes @ 0xE0001000) (0002ms, 0413ms total)
T1834 000:769 JLINK_IsHalted()  returns FALSE (0001ms, 0414ms total)
T1834 000:787 JLINK_IsHalted()  returns FALSE (0000ms, 0413ms total)
T1834 000:792 JLINK_IsHalted() -- CPU_ReadMem(2 bytes @ 0x20000000)  returns TRUE (0001ms, 0414ms total)
T1834 000:793 JLINK_ReadReg(R15 (PC))  returns 0x20000000 (0001ms, 0414ms total)
T1834 000:794 JLINK_ClrBPEx(BPHandle = 0x0000000F)  returns 0x00 (0000ms, 0414ms total)
T1834 000:794 JLINK_ReadReg(R0)  returns 0x00000000 (0000ms, 0414ms total)
T1834 000:794 JLINK_WriteReg(R0, 0x08003800)  returns 0x00 (0000ms, 0414ms total)
T1834 000:794 JLINK_WriteReg(R1, 0x00000800)  returns 0x00 (0000ms, 0414ms total)
T1834 000:794 JLINK_WriteReg(R2, 0x000000FF)  returns 0x00 (0001ms, 0415ms total)
T1834 000:795 JLINK_WriteReg(R3, 0x00000000)  returns 0x00 (0000ms, 0415ms total)
T1834 000:795 JLINK_WriteReg(R4, 0x00000000)  returns 0x00 (0000ms, 0415ms total)
T1834 000:795 JLINK_WriteReg(R5, 0x00000000)  returns 0x00 (0000ms, 0415ms total)
T1834 000:795 JLINK_WriteReg(R6, 0x00000000)  returns 0x00 (0000ms, 0415ms total)
T1834 000:795 JLINK_WriteReg(R7, 0x00000000)  returns 0x00 (0000ms, 0415ms total)
T1834 000:795 JLINK_WriteReg(R8, 0x00000000)  returns 0x00 (0000ms, 0415ms total)
T1834 000:795 JLINK_WriteReg(R9, 0x20000130)  returns 0x00 (0000ms, 0415ms total)
T1834 000:795 JLINK_WriteReg(R10, 0x00000000)  returns 0x00 (0000ms, 0415ms total)
T1834 000:795 JLINK_WriteReg(R11, 0x00000000)  returns 0x00 (0000ms, 0415ms total)
T1834 000:795 JLINK_WriteReg(R12, 0x00000000)  returns 0x00 (0000ms, 0415ms total)
T1834 000:795 JLINK_WriteReg(R13 (SP), 0x20001000)  returns 0x00 (0000ms, 0415ms total)
T1834 000:795 JLINK_WriteReg(R14, 0x20000001)  returns 0x00 (0000ms, 0415ms total)
T1834 000:795 JLINK_WriteReg(R15 (PC), 0x20000020)  returns 0x00 (0000ms, 0415ms total)
T1834 000:795 JLINK_WriteReg(XPSR, 0x01000000)  returns 0x00 (0000ms, 0415ms total)
T1834 000:795 JLINK_WriteReg(MSP, 0x20001000)  returns 0x00 (0000ms, 0415ms total)
T1834 000:795 JLINK_WriteReg(PSP, 0x20001000)  returns 0x00 (0000ms, 0415ms total)
T1834 000:795 JLINK_WriteReg(CFBP, 0x00000000)  returns 0x00 (0000ms, 0415ms total)
T1834 000:795 JLINK_SetBPEx(Addr = 0x20000000, Type = 0xFFFFFFF2)  returns 0x00000010 (0000ms, 0415ms total)
T1834 000:795 JLINK_Go() -- CPU_ReadMem(4 bytes @ 0xE0001000) (0002ms, 0417ms total)
T1834 000:797 JLINK_IsHalted() -- CPU_ReadMem(2 bytes @ 0x20000000)  returns TRUE (0003ms, 0420ms total)
T1834 000:800 JLINK_ReadReg(R15 (PC))  returns 0x20000000 (0000ms, 0417ms total)
T1834 000:800 JLINK_ClrBPEx(BPHandle = 0x00000010)  returns 0x00 (0000ms, 0417ms total)
T1834 000:800 JLINK_ReadReg(R0)  returns 0x00000001 (0000ms, 0417ms total)
T1834 000:800 JLINK_WriteReg(R0, 0x08003800)  returns 0x00 (0000ms, 0417ms total)
T1834 000:800 JLINK_WriteReg(R1, 0x00000800)  returns 0x00 (0000ms, 0417ms total)
T1834 000:800 JLINK_WriteReg(R2, 0x000000FF)  returns 0x00 (0000ms, 0417ms total)
T1834 000:800 JLINK_WriteReg(R3, 0x00000000)  returns 0x00 (0000ms, 0417ms total)
T1834 000:800 JLINK_WriteReg(R4, 0x00000000)  returns 0x00 (0000ms, 0417ms total)
T1834 000:801 JLINK_WriteReg(R5, 0x00000000)  returns 0x00 (0000ms, 0418ms total)
